vce	V(vout)	I(Ib)	Ic(Q1)
Step Information: Ib=0  (Run: 1/6)
0.000000000000000e+000	0.000000e+000	0.000000e+000	-0.000000e+000
1.000000000000000e-002	1.000000e-002	0.000000e+000	2.179655e-014
2.000000000000000e-002	2.000000e-002	0.000000e+000	4.039096e-014
3.000000000000000e-002	3.000000e-002	0.000000e+000	5.658863e-014
4.000000000000000e-002	4.000000e-002	0.000000e+000	7.102906e-014
5.000000000000000e-002	5.000000e-002	0.000000e+000	8.420099e-014
6.000000000000001e-002	6.000000e-002	0.000000e+000	9.646824e-014
7.000000000000001e-002	7.000000e-002	0.000000e+000	1.080967e-013
8.000000000000000e-002	8.000000e-002	0.000000e+000	1.192783e-013
9.000000000000000e-002	9.000000e-002	0.000000e+000	1.301501e-013
9.999999999999999e-002	1.000000e-001	0.000000e+000	1.408098e-013
1.100000000000000e-001	1.100000e-001	0.000000e+000	1.513262e-013
1.200000000000000e-001	1.200000e-001	0.000000e+000	1.617478e-013
1.300000000000000e-001	1.300000e-001	0.000000e+000	1.721088e-013
1.400000000000000e-001	1.400000e-001	0.000000e+000	1.824329e-013
1.500000000000000e-001	1.500000e-001	0.000000e+000	1.927370e-013
1.600000000000000e-001	1.600000e-001	0.000000e+000	2.030325e-013
1.700000000000000e-001	1.700000e-001	0.000000e+000	2.133275e-013
1.800000000000000e-001	1.800000e-001	0.000000e+000	2.236276e-013
1.900000000000000e-001	1.900000e-001	0.000000e+000	2.339367e-013
2.000000000000000e-001	2.000000e-001	0.000000e+000	2.442573e-013
2.100000000000001e-001	2.100000e-001	0.000000e+000	2.545912e-013
2.200000000000001e-001	2.200000e-001	0.000000e+000	2.649394e-013
2.300000000000001e-001	2.300000e-001	0.000000e+000	2.753029e-013
2.400000000000001e-001	2.400000e-001	0.000000e+000	2.856820e-013
2.500000000000001e-001	2.500000e-001	0.000000e+000	2.960770e-013
2.600000000000001e-001	2.600000e-001	0.000000e+000	3.064881e-013
2.700000000000001e-001	2.700000e-001	0.000000e+000	3.169151e-013
2.800000000000001e-001	2.800000e-001	0.000000e+000	3.273583e-013
2.900000000000001e-001	2.900000e-001	0.000000e+000	3.378173e-013
3.000000000000001e-001	3.000000e-001	0.000000e+000	3.482922e-013
3.100000000000001e-001	3.100000e-001	0.000000e+000	3.587828e-013
3.200000000000001e-001	3.200000e-001	0.000000e+000	3.692889e-013
3.300000000000001e-001	3.300000e-001	0.000000e+000	3.798105e-013
3.400000000000001e-001	3.400000e-001	0.000000e+000	3.903474e-013
3.500000000000001e-001	3.500000e-001	0.000000e+000	4.008994e-013
3.600000000000002e-001	3.600000e-001	0.000000e+000	4.114665e-013
3.700000000000002e-001	3.700000e-001	0.000000e+000	4.220484e-013
3.800000000000002e-001	3.800000e-001	0.000000e+000	4.326449e-013
3.900000000000002e-001	3.900000e-001	0.000000e+000	4.432561e-013
4.000000000000002e-001	4.000000e-001	0.000000e+000	4.538816e-013
4.100000000000002e-001	4.100000e-001	0.000000e+000	4.645214e-013
4.200000000000002e-001	4.200000e-001	0.000000e+000	4.751755e-013
4.300000000000002e-001	4.300000e-001	0.000000e+000	4.858435e-013
4.400000000000002e-001	4.400000e-001	0.000000e+000	4.965254e-013
4.500000000000002e-001	4.500000e-001	0.000000e+000	5.072211e-013
4.600000000000002e-001	4.600000e-001	0.000000e+000	5.179304e-013
4.700000000000003e-001	4.700000e-001	0.000000e+000	5.286533e-013
4.800000000000003e-001	4.800000e-001	0.000000e+000	5.393896e-013
4.900000000000003e-001	4.900000e-001	0.000000e+000	5.501391e-013
5.000000000000002e-001	5.000000e-001	0.000000e+000	5.609020e-013
5.100000000000002e-001	5.100000e-001	0.000000e+000	5.716779e-013
5.200000000000002e-001	5.200000e-001	0.000000e+000	5.824667e-013
5.300000000000003e-001	5.300000e-001	0.000000e+000	5.932684e-013
5.400000000000003e-001	5.400000e-001	0.000000e+000	6.040829e-013
5.500000000000003e-001	5.500000e-001	0.000000e+000	6.149101e-013
5.600000000000003e-001	5.600000e-001	0.000000e+000	6.257498e-013
5.700000000000003e-001	5.700000e-001	0.000000e+000	6.366021e-013
5.800000000000003e-001	5.800000e-001	0.000000e+000	6.474667e-013
5.900000000000003e-001	5.900000e-001	0.000000e+000	6.583437e-013
6.000000000000003e-001	6.000000e-001	0.000000e+000	6.692328e-013
6.100000000000003e-001	6.100000e-001	0.000000e+000	6.801341e-013
6.200000000000003e-001	6.200000e-001	0.000000e+000	6.910474e-013
6.300000000000003e-001	6.300000e-001	0.000000e+000	7.019726e-013
6.400000000000004e-001	6.400000e-001	0.000000e+000	7.129098e-013
6.500000000000004e-001	6.500000e-001	0.000000e+000	7.238586e-013
6.600000000000004e-001	6.600000e-001	0.000000e+000	7.348193e-013
6.700000000000004e-001	6.700000e-001	0.000000e+000	7.457916e-013
6.800000000000004e-001	6.800000e-001	0.000000e+000	7.567754e-013
6.900000000000004e-001	6.900000e-001	0.000000e+000	7.677707e-013
7.000000000000004e-001	7.000000e-001	0.000000e+000	7.787774e-013
7.100000000000004e-001	7.100000e-001	0.000000e+000	7.897955e-013
7.200000000000004e-001	7.200000e-001	0.000000e+000	8.008248e-013
7.300000000000004e-001	7.300000e-001	0.000000e+000	8.118653e-013
7.400000000000004e-001	7.400000e-001	0.000000e+000	8.229170e-013
7.500000000000004e-001	7.500000e-001	0.000000e+000	8.339797e-013
7.600000000000005e-001	7.600000e-001	0.000000e+000	8.450535e-013
7.700000000000005e-001	7.700000e-001	0.000000e+000	8.561381e-013
7.800000000000005e-001	7.800000e-001	0.000000e+000	8.672337e-013
7.900000000000005e-001	7.900000e-001	0.000000e+000	8.783400e-013
8.000000000000005e-001	8.000000e-001	0.000000e+000	8.894571e-013
8.100000000000005e-001	8.100000e-001	0.000000e+000	9.005849e-013
8.200000000000005e-001	8.200000e-001	0.000000e+000	9.117234e-013
8.300000000000005e-001	8.300000e-001	0.000000e+000	9.228723e-013
8.400000000000005e-001	8.400000e-001	0.000000e+000	9.340319e-013
8.500000000000005e-001	8.500000e-001	0.000000e+000	9.452019e-013
8.600000000000005e-001	8.600000e-001	0.000000e+000	9.563823e-013
8.700000000000006e-001	8.700000e-001	0.000000e+000	9.675730e-013
8.800000000000006e-001	8.800000e-001	0.000000e+000	9.787741e-013
8.900000000000006e-001	8.900000e-001	0.000000e+000	9.899854e-013
9.000000000000006e-001	9.000000e-001	0.000000e+000	1.001207e-012
9.100000000000006e-001	9.100000e-001	0.000000e+000	1.012439e-012
9.200000000000006e-001	9.200000e-001	0.000000e+000	1.023680e-012
9.300000000000006e-001	9.300000e-001	0.000000e+000	1.034932e-012
9.400000000000006e-001	9.400000e-001	0.000000e+000	1.046194e-012
9.500000000000006e-001	9.500000e-001	0.000000e+000	1.057466e-012
9.600000000000006e-001	9.600000e-001	0.000000e+000	1.068747e-012
9.700000000000006e-001	9.700000e-001	0.000000e+000	1.080039e-012
9.800000000000007e-001	9.800000e-001	0.000000e+000	1.091340e-012
9.900000000000007e-001	9.900000e-001	0.000000e+000	1.102651e-012
1.000000000000001e+000	1.000000e+000	0.000000e+000	1.113972e-012
1.010000000000001e+000	1.010000e+000	0.000000e+000	1.125303e-012
1.020000000000001e+000	1.020000e+000	0.000000e+000	1.136643e-012
1.030000000000001e+000	1.030000e+000	0.000000e+000	1.147993e-012
1.040000000000001e+000	1.040000e+000	0.000000e+000	1.159352e-012
1.050000000000001e+000	1.050000e+000	0.000000e+000	1.170721e-012
1.060000000000001e+000	1.060000e+000	0.000000e+000	1.182099e-012
1.070000000000001e+000	1.070000e+000	0.000000e+000	1.193487e-012
1.080000000000001e+000	1.080000e+000	0.000000e+000	1.204884e-012
1.090000000000001e+000	1.090000e+000	0.000000e+000	1.216290e-012
1.100000000000001e+000	1.100000e+000	0.000000e+000	1.227706e-012
1.110000000000001e+000	1.110000e+000	0.000000e+000	1.239131e-012
1.120000000000001e+000	1.120000e+000	0.000000e+000	1.250566e-012
1.130000000000001e+000	1.130000e+000	0.000000e+000	1.262009e-012
1.140000000000001e+000	1.140000e+000	0.000000e+000	1.273462e-012
1.150000000000001e+000	1.150000e+000	0.000000e+000	1.284924e-012
1.160000000000001e+000	1.160000e+000	0.000000e+000	1.296395e-012
1.170000000000001e+000	1.170000e+000	0.000000e+000	1.307875e-012
1.180000000000001e+000	1.180000e+000	0.000000e+000	1.319364e-012
1.190000000000001e+000	1.190000e+000	0.000000e+000	1.330862e-012
1.200000000000001e+000	1.200000e+000	0.000000e+000	1.342369e-012
1.210000000000001e+000	1.210000e+000	0.000000e+000	1.353885e-012
1.220000000000001e+000	1.220000e+000	0.000000e+000	1.365410e-012
1.230000000000001e+000	1.230000e+000	0.000000e+000	1.376944e-012
1.240000000000001e+000	1.240000e+000	0.000000e+000	1.388487e-012
1.250000000000001e+000	1.250000e+000	0.000000e+000	1.400038e-012
1.260000000000001e+000	1.260000e+000	0.000000e+000	1.411598e-012
1.270000000000001e+000	1.270000e+000	0.000000e+000	1.423167e-012
1.280000000000001e+000	1.280000e+000	0.000000e+000	1.434745e-012
1.290000000000001e+000	1.290000e+000	0.000000e+000	1.446331e-012
1.300000000000001e+000	1.300000e+000	0.000000e+000	1.457926e-012
1.310000000000001e+000	1.310000e+000	0.000000e+000	1.469530e-012
1.320000000000001e+000	1.320000e+000	0.000000e+000	1.481142e-012
1.330000000000001e+000	1.330000e+000	0.000000e+000	1.492763e-012
1.340000000000001e+000	1.340000e+000	0.000000e+000	1.504393e-012
1.350000000000001e+000	1.350000e+000	0.000000e+000	1.516031e-012
1.360000000000001e+000	1.360000e+000	0.000000e+000	1.527677e-012
1.370000000000001e+000	1.370000e+000	0.000000e+000	1.539332e-012
1.380000000000001e+000	1.380000e+000	0.000000e+000	1.550995e-012
1.390000000000001e+000	1.390000e+000	0.000000e+000	1.562667e-012
1.400000000000001e+000	1.400000e+000	0.000000e+000	1.574347e-012
1.410000000000001e+000	1.410000e+000	0.000000e+000	1.586036e-012
1.420000000000001e+000	1.420000e+000	0.000000e+000	1.597733e-012
1.430000000000001e+000	1.430000e+000	0.000000e+000	1.609438e-012
1.440000000000001e+000	1.440000e+000	0.000000e+000	1.621151e-012
1.450000000000001e+000	1.450000e+000	0.000000e+000	1.632873e-012
1.460000000000001e+000	1.460000e+000	0.000000e+000	1.644603e-012
1.470000000000001e+000	1.470000e+000	0.000000e+000	1.656341e-012
1.480000000000001e+000	1.480000e+000	0.000000e+000	1.668087e-012
1.490000000000001e+000	1.490000e+000	0.000000e+000	1.679842e-012
1.500000000000001e+000	1.500000e+000	0.000000e+000	1.691605e-012
1.510000000000001e+000	1.510000e+000	0.000000e+000	1.703376e-012
1.520000000000001e+000	1.520000e+000	0.000000e+000	1.715154e-012
1.530000000000001e+000	1.530000e+000	0.000000e+000	1.726941e-012
1.540000000000001e+000	1.540000e+000	0.000000e+000	1.738737e-012
1.550000000000001e+000	1.550000e+000	0.000000e+000	1.750540e-012
1.560000000000001e+000	1.560000e+000	0.000000e+000	1.762351e-012
1.570000000000001e+000	1.570000e+000	0.000000e+000	1.774170e-012
1.580000000000001e+000	1.580000e+000	0.000000e+000	1.785997e-012
1.590000000000001e+000	1.590000e+000	0.000000e+000	1.797832e-012
1.600000000000001e+000	1.600000e+000	0.000000e+000	1.809675e-012
1.610000000000001e+000	1.610000e+000	0.000000e+000	1.821526e-012
1.620000000000001e+000	1.620000e+000	0.000000e+000	1.833385e-012
1.630000000000001e+000	1.630000e+000	0.000000e+000	1.845251e-012
1.640000000000001e+000	1.640000e+000	0.000000e+000	1.857126e-012
1.650000000000001e+000	1.650000e+000	0.000000e+000	1.869008e-012
1.660000000000001e+000	1.660000e+000	0.000000e+000	1.880898e-012
1.670000000000001e+000	1.670000e+000	0.000000e+000	1.892796e-012
1.680000000000001e+000	1.680000e+000	0.000000e+000	1.904702e-012
1.690000000000001e+000	1.690000e+000	0.000000e+000	1.916615e-012
1.700000000000001e+000	1.700000e+000	0.000000e+000	1.928536e-012
1.710000000000001e+000	1.710000e+000	0.000000e+000	1.940465e-012
1.720000000000001e+000	1.720000e+000	0.000000e+000	1.952402e-012
1.730000000000001e+000	1.730000e+000	0.000000e+000	1.964346e-012
1.740000000000001e+000	1.740000e+000	0.000000e+000	1.976298e-012
1.750000000000001e+000	1.750000e+000	0.000000e+000	1.988257e-012
1.760000000000001e+000	1.760000e+000	0.000000e+000	2.000225e-012
1.770000000000001e+000	1.770000e+000	0.000000e+000	2.012199e-012
1.780000000000001e+000	1.780000e+000	0.000000e+000	2.024182e-012
1.790000000000001e+000	1.790000e+000	0.000000e+000	2.036172e-012
1.800000000000001e+000	1.800000e+000	0.000000e+000	2.048169e-012
1.810000000000001e+000	1.810000e+000	0.000000e+000	2.060174e-012
1.820000000000001e+000	1.820000e+000	0.000000e+000	2.072187e-012
1.830000000000001e+000	1.830000e+000	0.000000e+000	2.084207e-012
1.840000000000001e+000	1.840000e+000	0.000000e+000	2.096234e-012
1.850000000000001e+000	1.850000e+000	0.000000e+000	2.108270e-012
1.860000000000001e+000	1.860000e+000	0.000000e+000	2.120312e-012
1.870000000000001e+000	1.870000e+000	0.000000e+000	2.132362e-012
1.880000000000001e+000	1.880000e+000	0.000000e+000	2.144419e-012
1.890000000000002e+000	1.890000e+000	0.000000e+000	2.156484e-012
1.900000000000002e+000	1.900000e+000	0.000000e+000	2.168556e-012
1.910000000000002e+000	1.910000e+000	0.000000e+000	2.180636e-012
1.920000000000002e+000	1.920000e+000	0.000000e+000	2.192723e-012
1.930000000000002e+000	1.930000e+000	0.000000e+000	2.204817e-012
1.940000000000002e+000	1.940000e+000	0.000000e+000	2.216919e-012
1.950000000000002e+000	1.950000e+000	0.000000e+000	2.229028e-012
1.960000000000002e+000	1.960000e+000	0.000000e+000	2.241144e-012
1.970000000000002e+000	1.970000e+000	0.000000e+000	2.253267e-012
1.980000000000002e+000	1.980000e+000	0.000000e+000	2.265398e-012
1.990000000000002e+000	1.990000e+000	0.000000e+000	2.277536e-012
2.000000000000001e+000	2.000000e+000	0.000000e+000	2.289682e-012
2.010000000000001e+000	2.010000e+000	0.000000e+000	2.301834e-012
2.020000000000001e+000	2.020000e+000	0.000000e+000	2.313994e-012
2.030000000000001e+000	2.030000e+000	0.000000e+000	2.326161e-012
2.040000000000001e+000	2.040000e+000	0.000000e+000	2.338335e-012
2.050000000000000e+000	2.050000e+000	0.000000e+000	2.350517e-012
2.060000000000000e+000	2.060000e+000	0.000000e+000	2.362705e-012
2.070000000000000e+000	2.070000e+000	0.000000e+000	2.374901e-012
2.080000000000000e+000	2.080000e+000	0.000000e+000	2.387104e-012
2.089999999999999e+000	2.090000e+000	0.000000e+000	2.399314e-012
2.099999999999999e+000	2.100000e+000	0.000000e+000	2.411531e-012
2.109999999999999e+000	2.110000e+000	0.000000e+000	2.423755e-012
2.119999999999999e+000	2.120000e+000	0.000000e+000	2.435986e-012
2.129999999999999e+000	2.130000e+000	0.000000e+000	2.448224e-012
2.139999999999998e+000	2.140000e+000	0.000000e+000	2.460470e-012
2.149999999999998e+000	2.150000e+000	0.000000e+000	2.472722e-012
2.159999999999998e+000	2.160000e+000	0.000000e+000	2.484982e-012
2.169999999999998e+000	2.170000e+000	0.000000e+000	2.497248e-012
2.179999999999998e+000	2.180000e+000	0.000000e+000	2.509521e-012
2.189999999999997e+000	2.190000e+000	0.000000e+000	2.521802e-012
2.199999999999997e+000	2.200000e+000	0.000000e+000	2.534089e-012
2.209999999999997e+000	2.210000e+000	0.000000e+000	2.546384e-012
2.219999999999997e+000	2.220000e+000	0.000000e+000	2.558685e-012
2.229999999999996e+000	2.230000e+000	0.000000e+000	2.570994e-012
2.239999999999996e+000	2.240000e+000	0.000000e+000	2.583309e-012
2.249999999999996e+000	2.250000e+000	0.000000e+000	2.595631e-012
2.259999999999996e+000	2.260000e+000	0.000000e+000	2.607961e-012
2.269999999999996e+000	2.270000e+000	0.000000e+000	2.620297e-012
2.279999999999995e+000	2.280000e+000	0.000000e+000	2.632640e-012
2.289999999999995e+000	2.290000e+000	0.000000e+000	2.644989e-012
2.299999999999995e+000	2.300000e+000	0.000000e+000	2.657346e-012
2.309999999999995e+000	2.310000e+000	0.000000e+000	2.669710e-012
2.319999999999995e+000	2.320000e+000	0.000000e+000	2.682080e-012
2.329999999999994e+000	2.330000e+000	0.000000e+000	2.694457e-012
2.339999999999994e+000	2.340000e+000	0.000000e+000	2.706841e-012
2.349999999999994e+000	2.350000e+000	0.000000e+000	2.719232e-012
2.359999999999994e+000	2.360000e+000	0.000000e+000	2.731630e-012
2.369999999999993e+000	2.370000e+000	0.000000e+000	2.744035e-012
2.379999999999993e+000	2.380000e+000	0.000000e+000	2.756446e-012
2.389999999999993e+000	2.390000e+000	0.000000e+000	2.768864e-012
2.399999999999993e+000	2.400000e+000	0.000000e+000	2.781289e-012
2.409999999999993e+000	2.410000e+000	0.000000e+000	2.793720e-012
2.419999999999992e+000	2.420000e+000	0.000000e+000	2.806159e-012
2.429999999999992e+000	2.430000e+000	0.000000e+000	2.818604e-012
2.439999999999992e+000	2.440000e+000	0.000000e+000	2.831055e-012
2.449999999999992e+000	2.450000e+000	0.000000e+000	2.843514e-012
2.459999999999992e+000	2.460000e+000	0.000000e+000	2.855979e-012
2.469999999999991e+000	2.470000e+000	0.000000e+000	2.868451e-012
2.479999999999991e+000	2.480000e+000	0.000000e+000	2.880930e-012
2.489999999999991e+000	2.490000e+000	0.000000e+000	2.893415e-012
2.499999999999991e+000	2.500000e+000	0.000000e+000	2.905907e-012
2.509999999999991e+000	2.510000e+000	0.000000e+000	2.918406e-012
2.519999999999990e+000	2.520000e+000	0.000000e+000	2.930911e-012
2.529999999999990e+000	2.530000e+000	0.000000e+000	2.943423e-012
2.539999999999990e+000	2.540000e+000	0.000000e+000	2.955941e-012
2.549999999999990e+000	2.550000e+000	0.000000e+000	2.968466e-012
2.559999999999989e+000	2.560000e+000	0.000000e+000	2.980998e-012
2.569999999999989e+000	2.570000e+000	0.000000e+000	2.993537e-012
2.579999999999989e+000	2.580000e+000	0.000000e+000	3.006081e-012
2.589999999999989e+000	2.590000e+000	0.000000e+000	3.018633e-012
2.599999999999989e+000	2.600000e+000	0.000000e+000	3.031191e-012
2.609999999999988e+000	2.610000e+000	0.000000e+000	3.043756e-012
2.619999999999988e+000	2.620000e+000	0.000000e+000	3.056327e-012
2.629999999999988e+000	2.630000e+000	0.000000e+000	3.068905e-012
2.639999999999988e+000	2.640000e+000	0.000000e+000	3.081489e-012
2.649999999999988e+000	2.650000e+000	0.000000e+000	3.094080e-012
2.659999999999987e+000	2.660000e+000	0.000000e+000	3.106677e-012
2.669999999999987e+000	2.670000e+000	0.000000e+000	3.119281e-012
2.679999999999987e+000	2.680000e+000	0.000000e+000	3.131891e-012
2.689999999999987e+000	2.690000e+000	0.000000e+000	3.144508e-012
2.699999999999986e+000	2.700000e+000	0.000000e+000	3.157132e-012
2.709999999999986e+000	2.710000e+000	0.000000e+000	3.169762e-012
2.719999999999986e+000	2.720000e+000	0.000000e+000	3.182398e-012
2.729999999999986e+000	2.730000e+000	0.000000e+000	3.195041e-012
2.739999999999986e+000	2.740000e+000	0.000000e+000	3.207690e-012
2.749999999999985e+000	2.750000e+000	0.000000e+000	3.220345e-012
2.759999999999985e+000	2.760000e+000	0.000000e+000	3.233007e-012
2.769999999999985e+000	2.770000e+000	0.000000e+000	3.245676e-012
2.779999999999985e+000	2.780000e+000	0.000000e+000	3.258351e-012
2.789999999999985e+000	2.790000e+000	0.000000e+000	3.271032e-012
2.799999999999984e+000	2.800000e+000	0.000000e+000	3.283720e-012
2.809999999999984e+000	2.810000e+000	0.000000e+000	3.296414e-012
2.819999999999984e+000	2.820000e+000	0.000000e+000	3.309115e-012
2.829999999999984e+000	2.830000e+000	0.000000e+000	3.321822e-012
2.839999999999983e+000	2.840000e+000	0.000000e+000	3.334535e-012
2.849999999999983e+000	2.850000e+000	0.000000e+000	3.347255e-012
2.859999999999983e+000	2.860000e+000	0.000000e+000	3.359981e-012
2.869999999999983e+000	2.870000e+000	0.000000e+000	3.372713e-012
2.879999999999983e+000	2.880000e+000	0.000000e+000	3.385452e-012
2.889999999999982e+000	2.890000e+000	0.000000e+000	3.398197e-012
2.899999999999982e+000	2.900000e+000	0.000000e+000	3.410948e-012
2.909999999999982e+000	2.910000e+000	0.000000e+000	3.423706e-012
2.919999999999982e+000	2.920000e+000	0.000000e+000	3.436470e-012
2.929999999999982e+000	2.930000e+000	0.000000e+000	3.449240e-012
2.939999999999981e+000	2.940000e+000	0.000000e+000	3.462017e-012
2.949999999999981e+000	2.950000e+000	0.000000e+000	3.474800e-012
2.959999999999981e+000	2.960000e+000	0.000000e+000	3.487589e-012
2.969999999999981e+000	2.970000e+000	0.000000e+000	3.500385e-012
2.979999999999980e+000	2.980000e+000	0.000000e+000	3.513186e-012
2.989999999999980e+000	2.990000e+000	0.000000e+000	3.525994e-012
3.000000000000000e+000	3.000000e+000	0.000000e+000	3.538809e-012
Step Information: Ib=2µ  (Run: 2/6)
