Freq.	V(vout)
Step Information: Rl=10  (Run: 1/11)
1.00000000000000e+001	(-2.57749757209313e+001dB,-7.83526849743707e+001°)
1.25892541179417e+001	(-2.36233987844780e+001dB,-8.51549014574656e+001°)
1.58489319246111e+001	(-2.15955455132458e+001dB,-9.18419574456290e+001°)
1.99526231496888e+001	(-1.96879578567086e+001dB,-9.85774463208227e+001°)
2.51188643150958e+001	(-1.79120673098511e+001dB,-1.05512428692733e+002°)
3.16227766016838e+001	(-1.62921143525428e+001dB,-1.12737271061226e+002°)
3.98107170553497e+001	(-1.48595841456931e+001dB,-1.20238379242904e+002°)
5.01187233627272e+001	(-1.36437513795816e+001dB,-1.27875524441578e+002°)
6.30957344480194e+001	(-1.26605410969337e+001dB,-1.35400998576681e+002°)
7.94328234724282e+001	(-1.19049765809663e+001dB,-1.42525028456812e+002°)
1.00000000000000e+002	(-1.13517631270022e+001dB,-1.48998455083746e+002°)
1.25892541179417e+002	(-1.09632082880161e+001dB,-1.54669182479356e+002°)
1.58489319246111e+002	(-1.06991292806487e+001dB,-1.59491933550377e+002°)
1.99526231496888e+002	(-1.05239577353335e+001dB,-1.63503708248049e+002°)
2.51188643150958e+002	(-1.04097278046153e+001dB,-1.66788998819227e+002°)
3.16227766016838e+002	(-1.03360947739664e+001dB,-1.69450824900601e+002°)
3.98107170553498e+002	(-1.02889922087828e+001dB,-1.71592313355665e+002°)
5.01187233627273e+002	(-1.02590104469200e+001dB,-1.73307267385264e+002°)
6.30957344480194e+002	(-1.02399873665458e+001dB,-1.74676578099293e+002°)
7.94328234724282e+002	(-1.02279420729000e+001dB,-1.75767839954210e+002°)
1.00000000000000e+003	(-1.02203249700508e+001dB,-1.76636466229868e+002°)
1.25892541179417e+003	(-1.02155120953768e+001dB,-1.77327351138261e+002°)
1.58489319246111e+003	(-1.02124726601553e+001dB,-1.77876600391697e+002°)
1.99526231496888e+003	(-1.02105538230672e+001dB,-1.78313118482855e+002°)
2.51188643150958e+003	(-1.02093426871117e+001dB,-1.78659978347291e+002°)
3.16227766016838e+003	(-1.02085783400581e+001dB,-1.78935564608726e+002°)
3.98107170553498e+003	(-1.02080960011976e+001dB,-1.79154509640904e+002°)
5.01187233627273e+003	(-1.02077916386816e+001dB,-1.79328451203496e+002°)
6.30957344480194e+003	(-1.02075995880536e+001dB,-1.79466641358995e+002°)
7.94328234724283e+003	(-1.02074784079658e+001dB,-1.79576433743071e+002°)
1.00000000000000e+004	(-1.02074019467609e+001dB,-1.79663672446684e+002°)
1.25892541179417e+004	(-1.02073537022887e+001dB,-1.79733001868621e+002°)
1.58489319246112e+004	(-1.02073232617673e+001dB,-1.79788113361590e+002°)
1.99526231496888e+004	(-1.02073040549173e+001dB,-1.79831941466817e+002°)
2.51188643150958e+004	(-1.02072919360589e+001dB,-1.79866820016939e+002°)
3.16227766016839e+004	(-1.02072842893811e+001dB,-1.79894606334835e+002°)
3.98107170553498e+004	(-1.02072794643649e+001dB,-1.79916780099603e+002°)
5.01187233627273e+004	(-1.02072764195362e+001dB,-1.79934522123195e+002°)
6.30957344480195e+004	(-1.02072744976701e+001dB,-1.79948777222099e+002°)
7.94328234724283e+004	(-1.02072732839323e+001dB,-1.79960304526815e+002°)
1.00000000000000e+005	(-1.02072725163372e+001dB,-1.79969717905602e+002°)
1.25892541179417e+005	(-1.02072720291992e+001dB,-1.79977518653825e+002°)
1.58489319246112e+005	(-1.02072717173694e+001dB,-1.79984122189078e+002°)
1.99526231496888e+005	(-1.02072715135393e+001dB,-1.79989880173347e+002°)
2.51188643150959e+005	(-1.02072713737119e+001dB,-1.79995099240113e+002°)
3.16227766016839e+005	(-1.02072712677055e+001dB,1.79999942676382e+002°)
3.98107170553498e+005	(-1.02072711726385e+001dB,1.79994981540169e+002°)
5.01187233627273e+005	(-1.02072710679908e+001dB,1.79989753152697e+002°)
6.30957344480195e+005	(-1.02072709311739e+001dB,1.79983979083325e+002°)
7.94328234724283e+005	(-1.02072707326560e+001dB,1.79977351841924e+002°)
1.00000000000000e+006	(-1.02072704295867e+001dB,1.79969518503919e+002°)
1.25892541179417e+006	(-1.02072699565487e+001dB,1.79960061915898e+002°)
1.58489319246112e+006	(-1.02072692114363e+001dB,1.79948478480835e+002°)
1.99526231496888e+006	(-1.02072680334169e+001dB,1.79934151340223e+002°)
2.51188643150959e+006	(-1.02072661682150e+001dB,1.79916317524711e+002°)
3.16227766016839e+006	(-1.02072632132272e+001dB,1.79894027324941e+002°)
3.98107170553498e+006	(-1.02072585306216e+001dB,1.79866093719154e+002°)
5.01187233627274e+006	(-1.02072511096647e+001dB,1.79831029166183e+002°)
6.30957344480195e+006	(-1.02072393485623e+001dB,1.79786966400992e+002°)
7.94328234724284e+006	(-1.02072207087335e+001dB,1.79731559021136e+002°)
1.00000000000000e+007	(-1.02071911669097e+001dB,1.79661856582020e+002°)
1.25892541179417e+007	(-1.02071443468457e+001dB,1.79574147574057e+002°)
1.58489319246112e+007	(-1.02070701433427e+001dB,1.79463761970501e+002°)
1.99526231496889e+007	(-1.02069525418895e+001dB,1.79324822926502e+002°)
2.51188643150959e+007	(-1.02067661640628e+001dB,1.79149934606087e+002°)
3.16227766016839e+007	(-1.02064707949619e+001dB,1.78929789901668e+002°)
3.98107170553499e+007	(-1.02060027163100e+001dB,1.78652677939749e+002°)
5.01187233627274e+007	(-1.02052609867513e+001dB,1.78303866698797e+002°)
6.30957344480195e+007	(-1.02040857387500e+001dB,1.77864830965862e+002°)
7.94328234724284e+007	(-1.02022238847256e+001dB,1.77312290689936e+002°)
1.00000000000000e+008	(-1.01992750236302e+001dB,1.76617020770955e+002°)
Step Information: Rl=10M  (Run: 2/11)
1.00000000000000e+001	(2.67172845952757e+001dB,-1.00800546380255e+002°)
1.25892541179417e+001	(2.86299852177438e+001dB,-1.03440287908428e+002°)
1.58489319246111e+001	(3.04963126249653e+001dB,-1.06693726195795e+002°)
1.99526231496888e+001	(3.22932696274769e+001dB,-1.10645215247509e+002°)
2.51188643150958e+001	(3.39901685053416e+001dB,-1.15347771404675e+002°)
3.16227766016838e+001	(3.55495674961039e+001dB,-1.20790114617445e+002°)
3.98107170553497e+001	(3.69317753740659e+001dB,-1.26862039185082e+002°)
5.01187233627272e+001	(3.81034461854076e+001dB,-1.33338277950815e+002°)
6.30957344480194e+001	(3.90476731936968e+001dB,-1.39903726313813e+002°)
7.94328234724282e+001	(3.97700619197433e+001dB,-1.46222050306856e+002°)
1.00000000000000e+002	(4.02966360341534e+001dB,-1.52015793461517e+002°)
1.25892541179417e+002	(4.06650608880768e+001dB,-1.57115848703081e+002°)
1.58489319246111e+002	(4.09147072482408e+001dB,-1.61464396040273e+002°)
1.99526231496888e+002	(4.10799431517605e+001dB,-1.65086641067395e+002°)
2.51188643150958e+002	(4.11875305991502e+001dB,-1.68055159005246e+002°)
3.16227766016838e+002	(4.12568112714951e+001dB,-1.70461371837055e+002°)
3.98107170553498e+002	(4.13011000451029e+001dB,-1.72397752854656e+002°)
5.01187233627273e+002	(4.13292785770045e+001dB,-1.73948777026749e+002°)
6.30957344480194e+002	(4.13471525692585e+001dB,-1.75187442568989e+002°)
7.94328234724282e+002	(4.13584682649929e+001dB,-1.76174818591481e+002°)
1.00000000000000e+003	(4.13656231846448e+001dB,-1.76961006648974e+002°)
1.25892541179417e+003	(4.13701437025045e+001dB,-1.77586622676675e+002°)
1.58489319246111e+003	(4.13729983727864e+001dB,-1.78084353062221e+002°)
1.99526231496888e+003	(4.13748005032416e+001dB,-1.78480387171839e+002°)
2.51188643150958e+003	(4.13759379385792e+001dB,-1.78795656318142e+002°)
3.16227766016838e+003	(4.13766557380934e+001dB,-1.79046869982680e+002°)
3.98107170553498e+003	(4.13771086572511e+001dB,-1.79247366211698e+002°)
5.01187233627273e+003	(4.13773943864336e+001dB,-1.79407802105494e+002°)
6.30957344480194e+003	(4.13775745715836e+001dB,-1.79536711406272e+002°)
7.94328234724283e+003	(4.13776880942731e+001dB,-1.79640953964398e+002°)
1.00000000000000e+004	(4.13777594538615e+001dB,-1.79726078549689e+002°)
1.25892541179417e+004	(4.13778040515330e+001dB,-1.79796617089939e+002°)
1.58489319246112e+004	(4.13778315129940e+001dB,-1.79856325383747e+002°)
1.99526231496888e+004	(4.13778477655274e+001dB,-1.79908382794936e+002°)
2.51188643150958e+004	(4.13778563171376e+001dB,-1.79955561406116e+002°)
3.16227766016839e+004	(4.13778590136512e+001dB,1.79999626439422e+002°)
3.98107170553498e+004	(4.13778564371011e+001dB,1.79954794390950e+002°)
5.01187233627273e+004	(4.13778480313481e+001dB,1.79907555037902e+002°)
6.30957344480195e+004	(4.13778319820479e+001dB,1.79855392801077e+002°)
7.94328234724283e+004	(4.13778048250619e+001dB,1.79795530013300e+002°)
1.00000000000000e+005	(4.13777606988221e+001dB,1.79724779078313e+002°)
1.25892541179417e+005	(4.13776900793668e+001dB,1.79639372877722e+002°)
1.58489319246112e+005	(4.13775777252314e+001dB,1.79534764465989e+002°)
1.99526231496888e+005	(4.13773993891991e+001dB,1.79405385553550e+002°)
2.51188643150959e+005	(4.13771165885959e+001dB,1.79244351203382e+002°)
3.16227766016839e+005	(4.13766683090297e+001dB,1.79043095650331e+002°)
3.98107170553498e+005	(4.13759578601065e+001dB,1.78790921051151e+002°)
5.01187233627273e+005	(4.13748320692942e+001dB,1.78474437575751e+002°)
6.30957344480195e+005	(4.13730483815113e+001dB,1.78076869859796e+002°)
7.94328234724283e+005	(4.13702229097003e+001dB,1.77577202503702e+002°)
1.00000000000000e+006	(4.13657485903496e+001dB,1.76949138166754e+002°)
1.25892541179417e+006	(4.13586666955367e+001dB,1.76159850517459e+002°)
1.58489319246112e+006	(4.13474662495327e+001dB,1.75168539600945e+002°)
1.99526231496888e+006	(4.13297737032519e+001dB,1.73924856938099e+002°)
2.51188643150959e+006	(4.13018797377612e+001dB,1.72367392984740e+002°)
3.16227766016839e+006	(4.12580345752653e+001dB,1.70422664541881e+002°)
3.98107170553498e+006	(4.11894389947133e+001dB,1.68005481178849e+002°)
5.01187233627274e+006	(4.10828944017484e+001dB,1.65022281633370e+002°)
6.30957344480195e+006	(4.09192115771296e+001dB,1.61379961907202e+002°)
7.94328234724284e+006	(4.06718044352203e+001dB,1.57003364056878e+002°)
1.00000000000000e+007	(4.03064620138034e+001dB,1.51863467182092e+002°)
1.25892541179417e+007	(3.97838720001795e+001dB,1.46012869040988e+002°)
1.58489319246112e+007	(3.90662356818239e+001dB,1.39614297377791e+002°)
1.99526231496889e+007	(3.81271692162828e+001dB,1.32938414756366e+002°)
2.51188643150959e+007	(3.69605733944207e+001dB,1.26315097973933e+002°)
3.16227766016839e+007	(3.55829192116207e+001dB,1.20053283005773e+002°)
3.98107170553499e+007	(3.40273331894748e+001dB,1.14371254040258e+002°)
5.01187233627274e+007	(3.23335364529647e+001dB,1.09369867750512e+002°)
6.30957344480195e+007	(3.05391888965279e+001dB,1.05047396227770e+002°)
7.94328234724284e+007	(2.86753152681205e+001dB,1.01333287380978e+002°)
1.00000000000000e+008	(2.67653469894563e+001dB,9.81204498554698e+001°)
Step Information: Rl=20M  (Run: 3/11)
1.00000000000000e+001	(2.67189715139396e+001dB,-1.00805156095585e+002°)
1.25892541179417e+001	(2.86316712698856e+001dB,-1.03443972845359e+002°)
1.58489319246111e+001	(3.04979973974296e+001dB,-1.06696681149800e+002°)
1.99526231496888e+001	(3.22949525382546e+001dB,-1.10647594971125e+002°)
2.51188643150958e+001	(3.39918487988680e+001dB,-1.15349698131347e+002°)
3.16227766016838e+001	(3.55512442992329e+001dB,-1.20791683737607e+002°)
3.98107170553497e+001	(3.69334478442648e+001dB,-1.26863323736914e+002°)
5.01187233627272e+001	(3.81051137345419e+001dB,-1.33339332741949e+002°)
6.30957344480194e+001	(3.90493356892548e+001dB,-1.39904592262563e+002°)
7.94328234724282e+001	(3.97717197354011e+001dB,-1.46222758831914e+002°)
1.00000000000000e+002	(4.02982899132149e+001dB,-1.52016370089477e+002°)
1.25892541179417e+002	(4.06667117149285e+001dB,-1.57116315264171e+002°)
1.58489319246111e+002	(4.09163558547604e+001dB,-1.61464771589618e+002°)
1.99526231496888e+002	(4.10815902169201e+001dB,-1.65086942128340e+002°)
2.51188643150958e+002	(4.11891766287260e+001dB,-1.68055399645520e+002°)
3.16227766016838e+002	(4.12584566205033e+001dB,-1.70461563806156e+002°)
3.98107170553498e+002	(4.13027449533249e+001dB,-1.72397905813738e+002°)
5.01187233627273e+002	(4.13309232024295e+001dB,-1.73948898830477e+002°)
6.30957344480194e+002	(4.13487970143481e+001dB,-1.75187539554967e+002°)
7.94328234724282e+002	(4.13601125955306e+001dB,-1.76174895848952e+002°)
1.00000000000000e+003	(4.13672674425962e+001dB,-1.76961068253963e+002°)
1.25892541179417e+003	(4.13717879145320e+001dB,-1.77586671890614e+002°)
1.58489319246111e+003	(4.13746425557862e+001dB,-1.78084392496256e+002°)
1.99526231496888e+003	(4.13764446679024e+001dB,-1.78480418921105e+002°)
2.51188643150958e+003	(4.13775820916545e+001dB,-1.78795682070973e+002°)
3.16227766016838e+003	(4.13782998838455e+001dB,-1.79046891109271e+002°)
3.98107170553498e+003	(4.13787527983651e+001dB,-1.79247383836519e+002°)
5.01187233627273e+003	(4.13790385245951e+001dB,-1.79407817166814e+002°)
6.30957344480194e+003	(4.13792187078411e+001dB,-1.79536724706017e+002°)
7.94328234724283e+003	(4.13793322292649e+001dB,-1.79640966210728e+002°)
1.00000000000000e+004	(4.13794035879523e+001dB,-1.79726090394755e+002°)
1.25892541179417e+004	(4.13794481848933e+001dB,-1.79796629164471e+002°)
1.58489319246112e+004	(4.13794756456367e+001dB,-1.79856338330785e+002°)
1.99526231496888e+004	(4.13794918973104e+001dB,-1.79908397303939e+002°)
2.51188643150958e+004	(4.13795004477333e+001dB,-1.79955578249708e+002°)
3.16227766016839e+004	(4.13795031424756e+001dB,1.79999606364263e+002°)
3.98107170553498e+004	(4.13795005631879e+001dB,1.79954770015030e+002°)
5.01187233627273e+004	(4.13794921531402e+001dB,1.79907525063322e+002°)
6.30957344480195e+004	(4.13794760970611e+001dB,1.79855355631547e+002°)
7.94328234724283e+004	(4.13794489293490e+001dB,1.79795483669669e+002°)
1.00000000000000e+005	(4.13794047861211e+001dB,1.79724721093248e+002°)
1.25892541179417e+005	(4.13793341397484e+001dB,1.79639300163420e+002°)
1.58489319246112e+005	(4.13792217429591e+001dB,1.79534673152338e+002°)
1.99526231496888e+005	(4.13790433393309e+001dB,1.79405270779809e+002°)
2.51188643150959e+005	(4.13787604316094e+001dB,1.79244206863466e+002°)
3.16227766016839e+005	(4.13783119823018e+001dB,1.79042914068885e+002°)
3.98107170553498e+005	(4.13776012644290e+001dB,1.78790692580788e+002°)
5.01187233627273e+005	(4.13764750475412e+001dB,1.78474150094431e+002°)
6.30957344480195e+005	(4.13746906849267e+001dB,1.78076508147488e+002°)
7.94328234724283e+005	(4.13718641447146e+001dB,1.77576747476038e+002°)
1.00000000000000e+006	(4.13673881349069e+001dB,1.76948565946527e+002°)
1.25892541179417e+006	(4.13603035680218e+001dB,1.76159131337192e+002°)
1.58489319246112e+006	(4.13490989048638e+001dB,1.75167636561633e+002°)
1.99526231496888e+006	(4.13313997191743e+001dB,1.73923724719862e+002°)
2.51188643150959e+006	(4.13034953408346e+001dB,1.72365976748396e+002°)
3.16227766016839e+006	(4.12596339455256e+001dB,1.70420899531045e+002°)
3.98107170553498e+006	(4.11910132954082e+001dB,1.68003293999786e+002°)
5.01187233627274e+006	(4.10844305406928e+001dB,1.65019594890684e+002°)
6.30957344480195e+006	(4.09206908833232e+001dB,1.61376704643108e+002°)
7.94328234724284e+006	(4.06732018045419e+001dB,1.56999490538046e+002°)
1.00000000000000e+007	(4.03077466142201e+001dB,1.51858984249018e+002°)
1.25892541179417e+007	(3.97850109290410e+001dB,1.46007865348351e+002°)
1.58489319246112e+007	(3.90672011013739e+001dB,1.39608957762022e+002°)
1.99526231496889e+007	(3.81279468714375e+001dB,1.32932999975261e+002°)
2.51188643150959e+007	(3.69611678203008e+001dB,1.26309887328571e+002°)
3.16227766016839e+007	(3.55833520159138e+001dB,1.20048506774596e+002°)
3.98107170553499e+007	(3.40276356541765e+001dB,1.14367051920160e+002°)
5.01187233627274e+007	(3.23337411955326e+001dB,1.09366286770502e+002°)
6.30957344480195e+007	(3.05393243031814e+001dB,1.05044414735080e+002°)
7.94328234724284e+007	(2.86754033820257e+001dB,1.01330844860635e+002°)
1.00000000000000e+008	(2.67654037073425e+001dB,9.81184705456743e+001°)
Step Information: Rl=30M  (Run: 4/11)
1.00000000000000e+001	(2.67195338808506e+001dB,-1.00806693066344e+002°)
1.25892541179417e+001	(2.86322333523926e+001dB,-1.03445201476448e+002°)
1.58489319246111e+001	(3.04985590561175e+001dB,-1.06697666389905e+002°)
1.99526231496888e+001	(3.22955135780243e+001dB,-1.10648388417814e+002°)
2.51188643150958e+001	(3.39924089671422e+001dB,-1.15350340539682e+002°)
3.16227766016838e+001	(3.55518033044761e+001dB,-1.20792206912662e+002°)
3.98107170553497e+001	(3.69340054053032e+001dB,-1.26863752031090e+002°)
5.01187233627272e+001	(3.81056696551199e+001dB,-1.33339684429243e+002°)
6.30957344480194e+001	(3.90498899250889e+001dB,-1.39904880986014e+002°)
7.94328234724282e+001	(3.97722724110156e+001dB,-1.46222995067203e+002°)
1.00000000000000e+002	(4.02988412763959e+001dB,-1.52016562347731e+002°)
1.25892541179417e+002	(4.06672620605150e+001dB,-1.57116470824054e+002°)
1.58489319246111e+002	(4.09169054600933e+001dB,-1.61464896804502e+002°)
1.99526231496888e+002	(4.10821393083657e+001dB,-1.65087042507431e+002°)
2.51188643150958e+002	(4.11897253749088e+001dB,-1.68055479879270e+002°)
3.16227766016838e+002	(4.12590051397851e+001dB,-1.70461627812063e+002°)
3.98107170553498e+002	(4.13032933256487e+001dB,-1.72397956813007e+002°)
5.01187233627273e+002	(4.13314714804687e+001dB,-1.73948939441999e+002°)
6.30957344480194e+002	(4.13493452322635e+001dB,-1.75187571891810e+002°)
7.94328234724282e+002	(4.13606607752545e+001dB,-1.76174921607960e+002°)
1.00000000000000e+003	(4.13678155981198e+001dB,-1.76961088794156e+002°)
1.25892541179417e+003	(4.13723360547446e+001dB,-1.77586688299414e+002°)
1.58489319246111e+003	(4.13751906863208e+001dB,-1.78084405644261e+002°)
1.99526231496888e+003	(4.13769927923229e+001dB,-1.78480429506875e+002°)
2.51188643150958e+003	(4.13781302122124e+001dB,-1.78795690657422e+002°)
3.16227766016838e+003	(4.13788480019618e+001dB,-1.79046898153258e+002°)
3.98107170553498e+003	(4.13793009149351e+001dB,-1.79247389712946e+002°)
5.01187233627273e+003	(4.13795866401806e+001dB,-1.79407822188530e+002°)
6.30957344480194e+003	(4.13797668227919e+001dB,-1.79536729140373e+002°)
7.94328234724283e+003	(4.13798803437936e+001dB,-1.79640970293873e+002°)
1.00000000000000e+004	(4.13799517021807e+001dB,-1.79726094344104e+002°)
1.25892541179417e+004	(4.13799962988781e+001dB,-1.79796633190358e+002°)
1.58489319246112e+004	(4.13800237593822e+001dB,-1.79856342647571e+002°)
1.99526231496888e+004	(4.13800400107693e+001dB,-1.79908402141499e+002°)
2.51188643150958e+004	(4.13800485607962e+001dB,-1.79955583865667e+002°)
3.16227766016839e+004	(4.13800512549479e+001dB,1.79999599670875e+002°)
3.98107170553498e+004	(4.13800486747474e+001dB,1.79954761887763e+002°)
5.01187233627273e+004	(4.13800402632676e+001dB,1.79907515069278e+002°)
6.30957344480195e+004	(4.13800242049280e+001dB,1.79855343238533e+002°)
7.94328234724283e+004	(4.13799970336392e+001dB,1.79795468218059e+002°)
1.00000000000000e+005	(4.13799528847462e+001dB,1.79724701759911e+002°)
1.25892541179417e+005	(4.13798822293979e+001dB,1.79639275919216e+002°)
1.58489319246112e+005	(4.13797698183850e+001dB,1.79534642706648e+002°)
1.99526231496888e+005	(4.13795913922165e+001dB,1.79405232512232e+002°)
2.51188643150959e+005	(4.13793084487753e+001dB,1.79244158738000e+002°)
3.16227766016839e+005	(4.13788599428658e+001dB,1.79042853526434e+002°)
3.98107170553498e+005	(4.13781491353092e+001dB,1.78790616404743e+002°)
5.01187233627273e+005	(4.13770227763423e+001dB,1.78474054243097e+002°)
6.30957344480195e+005	(4.13752381886987e+001dB,1.78076387546243e+002°)
7.94328234724283e+005	(4.13724112922181e+001dB,1.77576595761834e+002°)
1.00000000000000e+006	(4.13679347187116e+001dB,1.76948375158315e+002°)
1.25892541179417e+006	(4.13608492607996e+001dB,1.76158891550033e+002°)
1.58489319246112e+006	(4.13496431913944e+001dB,1.75167335472878e+002°)
1.99526231496888e+006	(4.13319417917392e+001dB,1.73923347219318e+002°)
2.51188643150959e+006	(4.13040339411582e+001dB,1.72365504552206e+002°)
3.16227766016839e+006	(4.12601671329198e+001dB,1.70420311049243e+002°)
3.98107170553498e+006	(4.11915381232579e+001dB,1.68002564763399e+002°)
5.01187233627274e+006	(4.10849426434812e+001dB,1.65018699097978e+002°)
6.30957344480195e+006	(4.09211840354692e+001dB,1.61375618641098e+002°)
