time	V(vin)	V(vout)
0.000000000000000e+000	0.000000e+000	8.106124e-010
9.765625114122045e-011	6.135923e-009	4.890047e-008
1.953125022824409e-010	1.227185e-008	9.320982e-008
7.812500091297636e-010	4.908739e-008	2.792661e-007
1.562500018259527e-009	9.817477e-008	4.152833e-007
3.125000036519054e-009	1.963495e-007	5.669132e-007
1.159687502140017e-005	7.371641e-004	7.138443e-004
2.319062504276382e-005	1.460907e-003	1.414247e-003
3.478437506412747e-005	2.171424e-003	2.101774e-003
4.637812508549112e-005	2.868717e-003	2.776425e-003
5.797187510685477e-005	3.552784e-003	3.438202e-003
6.956562512821843e-005	4.223627e-003	4.087104e-003
8.115937514958204e-005	4.881244e-003	4.723130e-003
1.104562501495820e-004	6.396302e-003	6.188126e-003
1.397531251495820e-004	7.695236e-003	7.443546e-003
1.592843751495820e-004	8.419101e-003	8.142762e-003
1.788156251495821e-004	9.016335e-003	8.719264e-003
1.983468751495821e-004	9.477955e-003	9.164371e-003
2.178781251495821e-004	9.797018e-003	9.471384e-003
2.374093751495821e-004	9.968725e-003	9.635679e-003
2.569406251495821e-004	9.990493e-003	9.654784e-003
2.764718751495821e-004	9.861995e-003	9.528410e-003
2.960031251495821e-004	9.585162e-003	9.258458e-003
3.155343751495822e-004	9.164160e-003	8.848997e-003
3.350656251495822e-004	8.605321e-003	8.306189e-003
3.545968751495822e-004	7.917049e-003	7.638207e-003
3.838937501495822e-004	6.665097e-003	6.424008e-003
4.131906251495822e-004	5.187938e-003	4.992259e-003
4.424875001495823e-004	3.535483e-003	3.391369e-003
4.717843751495823e-004	1.763568e-003	1.675455e-003
4.829450894352966e-004	1.060962e-003	9.952393e-004
4.941058037210109e-004	3.616848e-004	3.183415e-004
5.052665180067252e-004	-3.342623e-004	-3.552381e-004
5.164272322924395e-004	-1.026880e-003	-1.025500e-003
5.275879465781538e-004	-1.716167e-003	-1.692443e-003
5.387486608638680e-004	-2.402126e-003	-2.356068e-003
5.499093751495823e-004	-3.084754e-003	-3.016375e-003
5.792062501495823e-004	-4.773773e-003	-4.649696e-003
6.085031251495824e-004	-6.301491e-003	-6.126357e-003
6.378000001495824e-004	-7.616288e-003	-7.396493e-003
6.573312501495824e-004	-8.352248e-003	-8.107005e-003
6.768625001495824e-004	-8.962582e-003	-8.695817e-003
6.963937501495824e-004	-9.438111e-003	-9.154080e-003
7.159250001495825e-004	-9.771681e-003	-9.474911e-003
7.354562501495825e-004	-9.958277e-003	-9.653489e-003
7.549875001495825e-004	-9.995090e-003	-9.687130e-003
7.745187501495825e-004	-9.881568e-003	-9.575329e-003
7.940500001495825e-004	-9.619419e-003	-9.319765e-003
8.135812501495825e-004	-9.212584e-003	-8.924280e-003
8.331125001495826e-004	-8.667183e-003	-8.394814e-003
8.526437501495826e-004	-7.991420e-003	-7.739323e-003
8.819406251495826e-004	-6.756079e-003	-6.541818e-003
9.112375001495826e-004	-5.292457e-003	-5.123759e-003
9.405343751495827e-004	-3.650007e-003	-3.533028e-003
9.698312501495827e-004	-1.884227e-003	-1.823348e-003
9.809919644352969e-004	-1.182889e-003	-1.144414e-003
9.921526787210113e-004	-4.842823e-004	-4.681844e-004
1.003313393006726e-003	2.115940e-004	2.053406e-004
1.014474107292440e-003	9.047394e-004	8.761611e-004
1.025634821578154e-003	1.595154e-003	1.544277e-003
1.036795535863869e-003	2.282838e-003	2.209688e-003
1.047956250149583e-003	2.967791e-003	2.872395e-003
1.077253125149583e-003	4.665584e-003	4.514721e-003
1.106550000149583e-003	6.205732e-003	6.004055e-003
1.135846875149583e-003	7.536193e-003	7.290041e-003
1.155378125149583e-003	8.284137e-003	8.012593e-003
1.174909375149583e-003	8.907478e-003	8.614392e-003
1.194440625149583e-003	9.396845e-003	9.086380e-003
1.213971875149583e-003	9.744872e-003	9.421449e-003
1.233503125149583e-003	9.946329e-003	9.614555e-003
1.253034375149583e-003	9.998183e-003	9.662791e-003
1.272565625149583e-003	9.899654e-003	9.565430e-003
1.292096875149583e-003	9.652227e-003	9.323938e-003
1.311628125149583e-003	9.259621e-003	8.941951e-003
1.331159375149583e-003	8.727740e-003	8.425221e-003
1.350690625149583e-003	8.064588e-003	7.781528e-003
1.370221875149583e-003	7.280136e-003	7.020561e-003
1.399518750149583e-003	5.902288e-003	5.684723e-003
1.428815625149583e-003	4.325008e-003	4.156337e-003
1.458112500149583e-003	2.601590e-003	2.487075e-003
1.469273214435297e-003	1.910074e-003	1.817475e-003
1.480433928721012e-003	1.217690e-003	1.147132e-003
1.491594643006726e-003	5.244382e-004	4.760435e-004
1.502755357292440e-003	-1.696815e-004	-1.957885e-004
1.513916071578155e-003	-8.646690e-004	-8.683647e-004
1.525076785863869e-003	-1.560524e-003	-1.541685e-003
1.536237500149583e-003	-2.257247e-003	-2.215749e-003
1.565534375149583e-003	-4.002271e-003	-3.903555e-003
1.594831250149583e-003	-5.612061e-003	-5.459893e-003
1.624128125149583e-003	-7.032225e-003	-6.832206e-003
1.643659375149583e-003	-7.849643e-003	-7.621656e-003
1.663190625149583e-003	-8.548995e-003	-8.296698e-003
1.682721875149583e-003	-9.119761e-003	-8.847188e-003
1.702253125149583e-003	-9.553358e-003	-9.264853e-003
1.721784375149583e-003	-9.843263e-003	-9.543418e-003
1.741315625149583e-003	-9.985116e-003	-9.678698e-003
1.760846875149583e-003	-9.976785e-003	-9.668660e-003
1.780378125149583e-003	-9.818393e-003	-9.513455e-003
1.799909375149583e-003	-9.512323e-003	-9.215415e-003
1.819440625149583e-003	-9.063180e-003	-8.779017e-003
1.838971875149584e-003	-8.477717e-003	-8.210819e-003
1.858503125149584e-003	-7.764741e-003	-7.519359e-003
1.887800000149584e-003	-6.480135e-003	-6.274249e-003
1.917096875149584e-003	-4.976572e-003	-4.817613e-003
1.946393750149584e-003	-3.304856e-003	-3.198639e-003
1.975690625149583e-003	-1.521471e-003	-1.472005e-003
1.986851339435297e-003	-8.166451e-004	-7.897270e-004
1.998012053721011e-003	-1.163449e-004	-1.118910e-004
2.009172768006725e-003	5.794294e-004	5.615031e-004
2.020333482292440e-003	1.270678e-003	1.230455e-003
2.031494196578154e-003	1.957401e-003	1.894966e-003
2.042654910863868e-003	2.639598e-003	2.555034e-003
2.053815625149582e-003	3.317269e-003	3.210661e-003
2.083112500149581e-003	4.987979e-003	4.826691e-003
2.112409375149580e-003	6.490150e-003	6.279186e-003
2.141706250149580e-003	7.773024e-003	7.519038e-003
2.161237500149579e-003	8.484687e-003	8.206427e-003
2.180768750149579e-003	9.068731e-003	8.770147e-003
2.200300000149578e-003	9.516373e-003	9.201713e-003
2.219831250149578e-003	9.820880e-003	9.494628e-003
2.239362500149578e-003	9.977672e-003	9.644479e-003
2.258893750149577e-003	9.984391e-003	9.649012e-003
2.278425000149577e-003	9.840935e-003	9.508159e-003
2.297956250149576e-003	9.549461e-003	9.224039e-003
2.317487500149576e-003	9.114356e-003	8.800931e-003
2.337018750149575e-003	8.542161e-003	8.245206e-003
2.356550000149575e-003	7.841486e-003	7.565229e-003
2.385846875149574e-003	6.573111e-003	6.335160e-003
2.415143750149574e-003	5.082638e-003	4.890556e-003
2.444440625149573e-003	3.420427e-003	3.280261e-003
2.473737500149573e-003	1.642643e-003	1.558710e-003
2.484898214435287e-003	9.388741e-004	8.773853e-004
2.496058928721001e-003	2.390329e-004	1.999581e-004
2.507219643006715e-003	-4.568802e-004	-4.735720e-004
2.518380357292429e-003	-1.148865e-003	-1.143205e-003
2.529541071578143e-003	-1.836922e-003	-1.808941e-003
2.540701785863857e-003	-2.521052e-003	-2.470779e-003
2.551862500149571e-003	-3.201253e-003	-3.128720e-003
2.581159375149570e-003	-4.881244e-003	-4.753265e-003
2.610456250149570e-003	-6.396302e-003	-6.217641e-003
2.639753125149569e-003	-7.695236e-003	-7.472398e-003
2.659284375149569e-003	-8.419101e-003	-8.171191e-003
2.678815625149568e-003	-9.016335e-003	-8.747314e-003
2.698346875149568e-003	-9.477955e-003	-9.192112e-003
2.717878125149567e-003	-9.797018e-003	-9.498900e-003
2.737409375149567e-003	-9.968725e-003	-9.663069e-003
2.756940625149567e-003	-9.990493e-003	-9.682152e-003
2.776471875149566e-003	-9.861995e-003	-9.555863e-003
2.796003125149566e-003	-9.585162e-003	-9.286100e-003
2.815534375149565e-003	-9.164160e-003	-8.876915e-003
2.835065625149565e-003	-8.605321e-003	-8.334456e-003
2.854596875149564e-003	-7.917049e-003	-7.666874e-003
2.883893750149564e-003	-6.665097e-003	-6.453318e-003
2.913190625149563e-003	-5.187938e-003	-5.022184e-003
2.942487500149563e-003	-3.535483e-003	-3.421797e-003
2.971784375149562e-003	-1.763568e-003	-1.706207e-003
2.982945089435276e-003	-1.060962e-003	-1.026056e-003
2.994105803720990e-003	-3.616848e-004	-3.491889e-004
3.005266518006704e-003	3.342623e-004	3.243939e-004
3.016427232292418e-003	1.026880e-003	9.946925e-004
3.027587946578132e-003	1.716167e-003	1.661707e-003
3.038748660863846e-003	2.402126e-003	2.325437e-003
3.049909375149560e-003	3.084754e-003	2.985883e-003
3.079206250149560e-003	4.773773e-003	4.619690e-003
3.108503125149559e-003	6.301491e-003	6.096966e-003
3.137800000149558e-003	7.616288e-003	7.367765e-003
3.157331250149558e-003	8.352248e-003	8.078702e-003
3.176862500149558e-003	8.962582e-003	8.667897e-003
3.196393750149557e-003	9.438111e-003	9.126479e-003
3.215925000149557e-003	9.771681e-003	9.447544e-003
3.235456250149556e-003	9.958277e-003	9.626258e-003
3.254987500149556e-003	9.995090e-003	9.659930e-003
3.274518750149556e-003	9.881568e-003	9.548054e-003
3.294050000149555e-003	9.619419e-003	9.292314e-003
3.313581250149555e-003	9.212584e-003	8.896559e-003
3.333112500149554e-003	8.667183e-003	8.366751e-003
3.352643750149554e-003	7.991420e-003	7.710863e-003
3.372175000149553e-003	7.195459e-003	6.938771e-003
3.401471875149553e-003	5.802784e-003	5.588611e-003
3.430768750149552e-003	4.214039e-003	4.049163e-003
3.460065625149552e-003	2.482905e-003	2.372473e-003
3.471226339435266e-003	1.789490e-003	1.701052e-003
3.482387053720980e-003	1.095807e-003	1.029468e-003
3.493547768006694e-003	4.018559e-004	3.577200e-004
3.504708482292408e-003	-2.923627e-004	-3.141912e-004
3.515869196578122e-003	-9.868492e-004	-9.862657e-004
3.527029910863836e-003	-1.681604e-003	-1.658504e-003
3.538190625149550e-003	-2.376626e-003	-2.330905e-003
3.567487500149549e-003	-4.114428e-003	-4.011680e-003
3.596784375149549e-003	-5.713207e-003	-5.557326e-003
3.626081250149548e-003	-7.118943e-003	-6.915645e-003
3.645612500149548e-003	-7.925079e-003	-7.694161e-003
3.665143750149547e-003	-8.612014e-003	-8.357175e-003
3.684675000149547e-003	-9.169417e-003	-8.894722e-003
3.704206250149546e-003	-9.588904e-003	-9.298726e-003
3.723737500149546e-003	-9.864164e-003	-9.563116e-003
3.743268750149546e-003	-9.991057e-003	-9.683920e-003
3.762800000149545e-003	-9.967676e-003	-9.659322e-003
3.782331250149545e-003	-9.794373e-003	-9.489693e-003
3.801862500149544e-003	-9.473752e-003	-9.177580e-003
3.821393750149544e-003	-9.010638e-003	-8.727674e-003
3.840925000149543e-003	-8.411995e-003	-8.146735e-003
3.860456250149543e-003	-7.686828e-003	-7.443490e-003
3.889753125149542e-003	-6.386184e-003	-6.182883e-003
3.919050000149542e-003	-4.869758e-003	-4.713825e-003
3.948346875149542e-003	-3.188787e-003	-3.085922e-003
3.977643750149541e-003	-1.400070e-003	-1.354155e-003
3.988804464435255e-003	-6.942933e-004	-6.709674e-004
3.999965178720969e-003	6.360420e-006	7.199938e-006
4.011125893006683e-003	7.018912e-004	6.803475e-004
4.022286607292397e-003	1.392299e-003	1.348475e-003
4.033447321578111e-003	2.077584e-003	2.011583e-003
4.044608035863825e-003	2.757746e-003	2.669672e-003
4.055768750149539e-003	3.432786e-003	3.322740e-003
4.085065625149539e-003	5.093963e-003	4.929516e-003
4.114362500149538e-003	6.583020e-003	6.369292e-003
4.143659375149537e-003	7.849643e-003	7.593389e-003
4.163190625149537e-003	8.548995e-003	8.268846e-003
4.182721875149537e-003	9.119761e-003	8.819701e-003
4.202253125149536e-003	9.553358e-003	9.237661e-003
4.221784375149536e-003	9.843263e-003	9.516432e-003
4.241315625149535e-003	9.985116e-003	9.651817e-003
4.260846875149535e-003	9.976785e-003	9.641779e-003
4.280378125149534e-003	9.818393e-003	9.486467e-003
4.299909375149534e-003	9.512323e-003	9.188220e-003
4.319440625149534e-003	9.063180e-003	8.751530e-003
4.338971875149533e-003	8.477717e-003	8.182971e-003
4.358503125149533e-003	7.764741e-003	7.491103e-003
4.387800000149532e-003	6.480135e-003	6.245350e-003
4.417096875149532e-003	4.976572e-003	4.788109e-003
4.446393750149531e-003	3.304856e-003	3.168651e-003
4.475690625149530e-003	1.521471e-003	1.441721e-003
4.486851339435245e-003	8.166451e-004	7.593905e-004
4.498012053720958e-003	1.163450e-004	8.153579e-005
4.509172768006673e-003	-5.794294e-004	-5.918433e-004
4.520333482292386e-003	-1.270678e-003	-1.260747e-003
4.531494196578101e-003	-1.957401e-003	-1.925175e-003
4.542654910863814e-003	-2.639598e-003	-2.585127e-003
4.553815625149529e-003	-3.317269e-003	-3.240604e-003
4.583112500149528e-003	-4.987979e-003	-4.856127e-003
4.612409375149527e-003	-6.490150e-003	-6.307997e-003
4.641706250149527e-003	-7.773024e-003	-7.547186e-003
4.661237500149526e-003	-8.484687e-003	-8.234154e-003
4.680768750149526e-003	-9.068731e-003	-8.797504e-003
4.700300000149526e-003	-9.516373e-003	-9.228768e-003
4.719831250149525e-003	-9.820880e-003	-9.521467e-003
4.739362500149525e-003	-9.977672e-003	-9.671203e-003
4.758893750149524e-003	-9.984391e-003	-9.675725e-003
4.778425000149524e-003	-9.840935e-003	-9.534968e-003
4.797956250149523e-003	-9.549461e-003	-9.251045e-003
4.817487500149523e-003	-9.114356e-003	-8.828223e-003
4.837018750149523e-003	-8.542161e-003	-8.272852e-003
4.856550000149522e-003	-7.841486e-003	-7.593280e-003
4.885846875149522e-003	-6.573111e-003	-6.363854e-003
4.915143750149521e-003	-5.082638e-003	-4.919861e-003
4.944440625149520e-003	-3.420427e-003	-3.310059e-003
4.973737500149520e-003	-1.642643e-003	-1.588818e-003
4.984898214435234e-003	-9.388741e-004	-9.075520e-004
4.996058928720948e-003	-2.390329e-004	-2.301495e-004
5.007219643006662e-003	4.568802e-004	4.433896e-004
5.018380357292376e-003	1.148865e-003	1.113065e-003
5.029541071578090e-003	1.836922e-003	1.778878e-003
5.040701785863804e-003	2.521052e-003	2.440827e-003
5.051862500149518e-003	3.201253e-003	3.098913e-003
5.081159375149517e-003	4.881244e-003	4.723954e-003
5.110456250149517e-003	6.396302e-003	6.188950e-003
5.139753125149516e-003	7.695236e-003	7.444370e-003
5.159284375149516e-003	8.419101e-003	8.143585e-003
5.178815625149515e-003	9.016335e-003	8.720086e-003
5.198346875149515e-003	9.477955e-003	9.165194e-003
5.217878125149515e-003	9.797018e-003	9.472206e-003
5.237409375149514e-003	9.968725e-003	9.636502e-003
5.256940625149514e-003	9.990493e-003	9.655606e-003
5.276471875149513e-003	9.861995e-003	9.529231e-003
5.296003125149513e-003	9.585162e-003	9.259281e-003
5.315534375149512e-003	9.164160e-003	8.849818e-003
5.335065625149512e-003	8.605321e-003	8.307010e-003
5.354596875149512e-003	7.917049e-003	7.639028e-003
5.383893750149511e-003	6.665097e-003	6.424829e-003
5.413190625149510e-003	5.187938e-003	4.993080e-003
5.442487500149510e-003	3.535483e-003	3.392189e-003
5.471784375149509e-003	1.763568e-003	1.676275e-003
5.482945089435224e-003	1.060962e-003	9.960593e-004
5.494105803720937e-003	3.616848e-004	3.191614e-004
5.505266518006651e-003	-3.342623e-004	-3.544183e-004
5.516427232292365e-003	-1.026880e-003	-1.024680e-003
5.527587946578079e-003	-1.716167e-003	-1.691623e-003
5.538748660863793e-003	-2.402126e-003	-2.355248e-003
5.549909375149507e-003	-3.084754e-003	-3.015555e-003
5.579206250149507e-003	-4.773773e-003	-4.648877e-003
5.608503125149506e-003	-6.301491e-003	-6.125539e-003
5.637800000149506e-003	-7.616288e-003	-7.395675e-003
5.657331250149505e-003	-8.352248e-003	-8.106186e-003
5.676862500149505e-003	-8.962582e-003	-8.694998e-003
5.696393750149504e-003	-9.438111e-003	-9.153262e-003
5.715925000149504e-003	-9.771681e-003	-9.474093e-003
5.735456250149503e-003	-9.958277e-003	-9.652671e-003
5.754987500149503e-003	-9.995090e-003	-9.686313e-003
5.774518750149503e-003	-9.881568e-003	-9.574512e-003
5.794050000149502e-003	-9.619419e-003	-9.318949e-003
5.813581250149502e-003	-9.212584e-003	-8.923464e-003
5.833112500149501e-003	-8.667183e-003	-8.393997e-003
5.852643750149501e-003	-7.991420e-003	-7.738506e-003
5.881940625149500e-003	-6.756079e-003	-6.541002e-003
5.911237500149500e-003	-5.292457e-003	-5.122942e-003
5.940534375149499e-003	-3.650007e-003	-3.532212e-003
5.969831250149498e-003	-1.884227e-003	-1.822533e-003
5.980991964435213e-003	-1.182889e-003	-1.143598e-003
5.992152678720926e-003	-4.842823e-004	-4.673688e-004
6.003313393006641e-003	2.115940e-004	2.061561e-004
6.014474107292354e-003	9.047394e-004	8.769765e-004
6.025634821578069e-003	1.595154e-003	1.545092e-003
6.036795535863782e-003	2.282838e-003	2.210504e-003
6.047956250149497e-003	2.967791e-003	2.873210e-003
6.077253125149496e-003	4.665584e-003	4.515536e-003
6.106550000149496e-003	6.205732e-003	6.004869e-003
6.135846875149495e-003	7.536193e-003	7.290856e-003
6.155378125149495e-003	8.284137e-003	8.013407e-003
6.174909375149494e-003	8.907478e-003	8.615207e-003
6.194440625149494e-003	9.396845e-003	9.087194e-003
6.213971875149493e-003	9.744872e-003	9.422263e-003
6.233503125149493e-003	9.946329e-003	9.615369e-003
6.253034375149492e-003	9.998183e-003	9.663605e-003
6.272565625149492e-003	9.899654e-003	9.566244e-003
6.292096875149492e-003	9.652227e-003	9.324752e-003
6.311628125149491e-003	9.259621e-003	8.942764e-003
6.331159375149491e-003	8.727740e-003	8.426035e-003
6.350690625149490e-003	8.064588e-003	7.782341e-003
6.370221875149490e-003	7.280136e-003	7.021374e-003
6.399518750149489e-003	5.902288e-003	5.685535e-003
6.428815625149489e-003	4.325008e-003	4.157149e-003
6.458112500149488e-003	2.601590e-003	2.487887e-003
6.469273214435202e-003	1.910074e-003	1.818287e-003
6.480433928720916e-003	1.217690e-003	1.147943e-003
6.491594643006630e-003	5.244382e-004	4.768549e-004
6.502755357292344e-003	-1.696815e-004	-1.949772e-004
6.513916071578058e-003	-8.646690e-004	-8.675535e-004
6.525076785863772e-003	-1.560524e-003	-1.540874e-003
6.536237500149486e-003	-2.257247e-003	-2.214938e-003
6.565534375149486e-003	-4.002271e-003	-3.902744e-003
6.594831250149485e-003	-5.612061e-003	-5.459083e-003
6.624128125149485e-003	-7.032225e-003	-6.831395e-003
6.643659375149484e-003	-7.849643e-003	-7.620846e-003
6.663190625149484e-003	-8.548995e-003	-8.295889e-003
6.682721875149483e-003	-9.119761e-003	-8.846379e-003
6.702253125149483e-003	-9.553358e-003	-9.264044e-003
6.721784375149482e-003	-9.843263e-003	-9.542609e-003
6.741315625149482e-003	-9.985116e-003	-9.677889e-003
6.760846875149482e-003	-9.976785e-003	-9.667851e-003
6.780378125149481e-003	-9.818393e-003	-9.512646e-003
6.799909375149481e-003	-9.512323e-003	-9.214606e-003
6.819440625149480e-003	-9.063180e-003	-8.778209e-003
6.838971875149480e-003	-8.477717e-003	-8.210011e-003
6.858503125149480e-003	-7.764741e-003	-7.518551e-003
6.887800000149479e-003	-6.480135e-003	-6.273441e-003
6.917096875149478e-003	-4.976572e-003	-4.816806e-003
6.946393750149478e-003	-3.304856e-003	-3.197832e-003
6.975690625149477e-003	-1.521471e-003	-1.471198e-003
6.986851339435191e-003	-8.166451e-004	-7.889198e-004
6.998012053720905e-003	-1.163450e-004	-1.110838e-004
7.009172768006619e-003	5.794294e-004	5.623102e-004
7.020333482292333e-003	1.270678e-003	1.231262e-003
7.031494196578047e-003	1.957401e-003	1.895773e-003
7.042654910863761e-003	2.639598e-003	2.555841e-003
7.053815625149475e-003	3.317269e-003	3.211468e-003
7.083112500149475e-003	4.987979e-003	4.827498e-003
7.112409375149474e-003	6.490150e-003	6.279993e-003
7.141706250149474e-003	7.773024e-003	7.519844e-003
7.161237500149473e-003	8.484687e-003	8.207233e-003
7.180768750149473e-003	9.068731e-003	8.770954e-003
7.200300000149472e-003	9.516373e-003	9.202519e-003
7.219831250149472e-003	9.820880e-003	9.495433e-003
7.239362500149471e-003	9.977672e-003	9.645285e-003
7.258893750149471e-003	9.984391e-003	9.649818e-003
7.278425000149471e-003	9.840935e-003	9.508964e-003
7.297956250149470e-003	9.549461e-003	9.224843e-003
7.317487500149470e-003	9.114356e-003	8.801736e-003
